T05BC 730:548 SEGGER J-Link V6.46 Log File (0000ms, 9282ms total)
T05BC 730:548 DLL Compiled: May 23 2019 17:49:56 (0000ms, 9282ms total)
T05BC 730:548 Logging started @ 2020-06-13 09:16 (0000ms, 9282ms total)
T05BC 730:548 JLINK_SetWarnOutHandler(...) (0000ms, 9282ms total)
T05BC 730:548 JLINK_OpenEx(...)
Firmware: J-Link V9 compiled May 17 2019 09:50:41
Hardware: V9.50
S/N: 14586923
Feature(s): GDB, GDI, FlashBP, FlashDL, JFlash, RDDI
TELNET listener socket opened on port 19021WEBSRV 
Starting webserver (0044ms, 9326ms total)
T05BC 730:548 WEBSRV Webserver running on local port 19080 (0044ms, 9326ms total)
T05BC 730:548   returns O.K. (0044ms, 9326ms total)
T05BC 730:592 JLINK_GetEmuCaps()  returns 0xB9FF7BBF (0000ms, 9326ms total)
T05BC 730:593 JLINK_TIF_GetAvailable(...) (0000ms, 9326ms total)
T05BC 730:593 JLINK_SetErrorOutHandler(...) (0000ms, 9326ms total)
T05BC 730:593 JLINK_ExecCommand("ProjectFile = "D:\stm32test\STM32_Demo\Project\JLinkSettings.ini"", ...).   returns 0x00 (0003ms, 9329ms total)
T05BC 730:597 JLINK_ExecCommand("Device = STM32F103ZE", ...). Device "STM32F103ZE" selected.  returns 0x00 (0003ms, 9332ms total)
T05BC 730:600 JLINK_ExecCommand("DisableConnectionTimeout", ...).   returns 0x01 (0000ms, 9332ms total)
T05BC 730:600 JLINK_GetHardwareVersion()  returns 0x17318 (0000ms, 9332ms total)
T05BC 730:600 JLINK_GetDLLVersion()  returns 64600 (0000ms, 9332ms total)
T05BC 730:600 JLINK_GetFirmwareString(...) (0000ms, 9332ms total)
T05BC 730:600 JLINK_GetDLLVersion()  returns 64600 (0000ms, 9332ms total)
T05BC 730:600 JLINK_GetCompileDateTime() (0000ms, 9332ms total)
T05BC 730:600 JLINK_GetFirmwareString(...) (0000ms, 9332ms total)
T05BC 730:600 JLINK_GetHardwareVersion()  returns 0x17318 (0000ms, 9332ms total)
T05BC 730:600 JLINK_TIF_Select(JLINKARM_TIF_SWD)  returns 0x00 (0001ms, 9333ms total)
T05BC 730:601 JLINK_SetSpeed(50000) (0000ms, 9333ms total)
T05BC 730:601 JLINK_GetId() >0x10B TIF>Found SW-DP with ID 0x1BA01477 >0x0D TIF> >0x28 TIF> >0x0D TIF> >0x28 TIF> >0x0D TIF> >0x28 TIF> >0x0D TIF> >0x28 TIF> >0x0D TIF> >0x21 TIF> >0x0D TIF> >0x28 TIF> >0x0D TIF> >0x28 TIF> >0x0D TIF> >0x28 TIF> >0x0D TIF> >0x21 TIF> >0x0D TIF> >0x21 TIF> >0x0D TIF> >0x28 TIF> >0x0D TIF> >0x21 TIF> >0x0D TIF> >0x21 TIF> >0x0D TIF> >0x28 TIF> >0x0D TIF> >0x21 TIF> >0x0D TIF> >0x21 TIF> >0x0D TIF> >0x28 TIF> >0x0D TIF> >0x21 TIF> >0x0D TIF> >0x21 TIF> >0x0D TIF> >0x28 TIF>
 >0x0D TIF> >0x21 TIF> >0x0D TIF> >0x21 TIF> >0x0D TIF> >0x28 TIF> >0x0D TIF> >0x21 TIF> >0x0D TIF> >0x21 TIF> >0x0D TIF> >0x28 TIF> >0x0D TIF> >0x21 TIF> >0x0D TIF> >0x21 TIF> >0x10B TIF>Found SW-DP with ID 0x1BA01477 >0x0D TIF> >0x28 TIF> >0x0D TIF> >0x28 TIF> >0x0D TIF> >0x28 TIF> >0x0D TIF> >0x28 TIF> >0x0D TIF> >0x21 TIF> >0x0D TIF> >0x28 TIF>Scanning AP map to find all available APs >0x0D TIF> >0x28 TIF> >0x0D TIF> >0x21 TIF> >0x0D TIF> >0x21 TIF> >0x0D TIF> >0x28 TIF> >0x0D TIF> >0x21 TIF>
 >0x0D TIF> >0x21 TIF>AP[1]: Stopped AP scan as end of AP map has been reachedAP[0]: AHB-AP (IDR: 0x14770011)Iterating through AP map to find AHB-AP to use >0x42 TIF> >0x28 TIF> >0x0D TIF> >0x28 TIF> >0x0D TIF> >0x21 TIF> >0x0D TIF> >0x21 TIF> >0x42 TIF> >0x28 TIF> >0x0D TIF> >0x28 TIF> >0x0D TIF> >0x28 TIF> >0x0D TIF> >0x21 TIF> >0x0D TIF> >0x21 TIF>AP[0]: Core foundAP[0]: AHB-AP ROM base: 0xE00FF000 >0x0D TIF> >0x28 TIF> >0x0D TIF> >0x28 TIF> >0x0D TIF> >0x28 TIF> >0x0D TIF> >0x21 TIF> >0x0D TIF>
 >0x21 TIF>CPUID register: 0x411FC231. Implementer code: 0x41 (ARM)Found Cortex-M3 r1p1, Little endian. -- Max. mem block: 0x00010F28 -- CPU_ReadMem(4 bytes @ 0xE000EDF0) -- CPU_WriteMem(4 bytes @ 0xE000EDF0) -- CPU_ReadMem(4 bytes @ 0xE0002000)FPUnit: 6 code (BP) slots and 2 literal slots -- CPU_ReadMem(4 bytes @ 0xE000EDFC) -- CPU_WriteMem(4 bytes @ 0xE000EDFC) -- CPU_ReadMem(4 bytes @ 0xE0001000) -- CPU_WriteMem(4 bytes @ 0xE0001000) -- CPU_ReadMem(4 bytes @ 0xE000ED88)
 -- CPU_WriteMem(4 bytes @ 0xE000ED88) -- CPU_ReadMem(4 bytes @ 0xE000ED88) -- CPU_WriteMem(4 bytes @ 0xE000ED88)CoreSight components:ROMTbl[0] @ E00FF000 -- CPU_ReadMem(16 bytes @ 0xE00FF000) -- CPU_ReadMem(16 bytes @ 0xE000EFF0) -- CPU_ReadMem(16 bytes @ 0xE000EFE0)ROMTbl[0][0]: E000E000, CID: B105E00D, PID: 001BB000 SCS -- CPU_ReadMem(16 bytes @ 0xE0001FF0) -- CPU_ReadMem(16 bytes @ 0xE0001FE0)ROMTbl[0][1]: E0001000, CID: B105E00D, PID: 001BB002 DWT -- CPU_ReadMem(16 bytes @ 0xE0002FF0)
 -- CPU_ReadMem(16 bytes @ 0xE0002FE0)ROMTbl[0][2]: E0002000, CID: B105E00D, PID: 000BB003 FPB -- CPU_ReadMem(16 bytes @ 0xE0000FF0) -- CPU_ReadMem(16 bytes @ 0xE0000FE0)ROMTbl[0][3]: E0000000, CID: B105E00D, PID: 001BB001 ITM -- CPU_ReadMem(16 bytes @ 0xE00FF010) -- CPU_ReadMem(16 bytes @ 0xE0040FF0) -- CPU_ReadMem(16 bytes @ 0xE0040FE0)ROMTbl[0][4]: E0040000, CID: B105900D, PID: 001BB923 TPIU-Lite -- CPU_ReadMem(16 bytes @ 0xE0041FF0) -- CPU_ReadMem(16 bytes @ 0xE0041FE0)
ROMTbl[0][5]: E0041000, CID: B105900D, PID: 101BB924 ETM-M3 >0x0D TIF> >0x21 TIF>  returns 0x1BA01477 (0131ms, 9464ms total)
T05BC 730:732 JLINK_GetDLLVersion()  returns 64600 (0000ms, 9464ms total)
T05BC 730:732 JLINK_CORE_GetFound()  returns 0x30000FF (0000ms, 9464ms total)
T05BC 730:732 JLINK_GetDebugInfo(0x100 = JLINKARM_ROM_TABLE_ADDR_INDEX) -- Value=0xE00FF000  returns 0x00 (0000ms, 9464ms total)
T05BC 730:732 JLINK_GetDebugInfo(0x100 = JLINKARM_ROM_TABLE_ADDR_INDEX) -- Value=0xE00FF000  returns 0x00 (0000ms, 9464ms total)
T05BC 730:732 JLINK_GetDebugInfo(0x101 = JLINKARM_DEBUG_INFO_ETM_ADDR_INDEX) -- Value=0xE0041000  returns 0x00 (0000ms, 9464ms total)
T05BC 730:732 JLINK_ReadMemEx(0xE0041FD0, 0x0020 Bytes, ..., Flags = 0x02000004) -- CPU_ReadMem(32 bytes @ 0xE0041FD0) - Data: 04 00 00 00 00 00 00 00 00 00 00 00 00 00 00 00 ...  returns 0x20 (0000ms, 9464ms total)
T05BC 730:732 JLINK_GetDebugInfo(0x102 = JLINKARM_DEBUG_INFO_MTB_ADDR_INDEX) -- Value=0x00000000  returns 0x00 (0000ms, 9464ms total)
T05BC 730:732 JLINK_GetDebugInfo(0x103 = JLINKARM_DEBUG_INFO_TPIU_ADDR_INDEX) -- Value=0xE0040000  returns 0x00 (0000ms, 9464ms total)
T05BC 730:732 JLINK_GetDebugInfo(0x104 = JLINKARM_DEBUG_INFO_ITM_ADDR_INDEX) -- Value=0xE0000000  returns 0x00 (0000ms, 9464ms total)
T05BC 730:732 JLINK_GetDebugInfo(0x105 = JLINKARM_DEBUG_INFO_DWT_ADDR_INDEX) -- Value=0xE0001000  returns 0x00 (0000ms, 9464ms total)
T05BC 730:732 JLINK_GetDebugInfo(0x106 = JLINKARM_DEBUG_INFO_FPB_ADDR_INDEX) -- Value=0xE0002000  returns 0x00 (0000ms, 9464ms total)
T05BC 730:732 JLINK_GetDebugInfo(0x107 = JLINKARM_DEBUG_INFO_NVIC_ADDR_INDEX) -- Value=0xE000E000  returns 0x00 (0000ms, 9464ms total)
T05BC 730:732 JLINK_GetDebugInfo(0x10C = JLINKARM_DEBUG_INFO_DBG_ADDR_INDEX) -- Value=0xE000EDF0  returns 0x00 (0000ms, 9464ms total)
T05BC 730:732 JLINK_GetDebugInfo(0x01 = Unknown) -- Value=0x00000000  returns 0x00 (0000ms, 9464ms total)
T05BC 730:732 JLINK_ReadMemU32(0xE000ED00, 0x0001 Items, ...) -- CPU_ReadMem(4 bytes @ 0xE000ED00) - Data: 31 C2 1F 41  returns 1 (0001ms, 9465ms total)
T05BC 730:733 JLINK_GetDebugInfo(0x10F = JLINKARM_DEBUG_INFO_HAS_CORTEX_M_SECURITY_EXT_INDEX) -- Value=0x00000000  returns 0x00 (0000ms, 9465ms total)
T05BC 730:733 JLINK_SetResetType(JLINKARM_CM3_RESET_TYPE_NORMAL)  returns JLINKARM_CM3_RESET_TYPE_NORMAL (0000ms, 9465ms total)
T05BC 730:733 JLINK_Reset() -- CPU is running -- CPU_WriteMem(4 bytes @ 0xE000EDF0) -- CPU is running -- CPU_WriteMem(4 bytes @ 0xE000EDFC)Reset: Halt core after reset via DEMCR.VC_CORERESET. >0x35 TIF>Reset: Reset device via AIRCR.SYSRESETREQ. -- CPU is running -- CPU_WriteMem(4 bytes @ 0xE000ED0C) >0x0D TIF> >0x28 TIF> -- CPU_ReadMem(4 bytes @ 0xE000EDF0) -- CPU_ReadMem(4 bytes @ 0xE000EDF0) -- CPU is running -- CPU_WriteMem(4 bytes @ 0xE000EDF0) -- CPU is running -- CPU_WriteMem(4 bytes @ 0xE000EDFC)
 -- CPU_ReadMem(4 bytes @ 0xE000EDF0) -- CPU_WriteMem(4 bytes @ 0xE0002000) -- CPU_ReadMem(4 bytes @ 0xE000EDFC) -- CPU_ReadMem(4 bytes @ 0xE0001000) (0062ms, 9527ms total)
T05BC 730:796 JLINK_ReadReg(R15 (PC))  returns 0x08000284 (0000ms, 9527ms total)
T05BC 730:796 JLINK_ReadReg(XPSR)  returns 0x01000000 (0000ms, 9527ms total)
T05BC 730:796 JLINK_Halt()  returns 0x00 (0000ms, 9527ms total)
T05BC 730:796 JLINK_ReadMemU32(0xE000EDF0, 0x0001 Items, ...) -- CPU_ReadMem(4 bytes @ 0xE000EDF0) - Data: 03 00 03 00  returns 1 (0000ms, 9527ms total)
T05BC 730:796 JLINK_WriteU32(0xE000EDF0, 0xA05F0003) -- CPU_WriteMem(4 bytes @ 0xE000EDF0)  returns 0 (0000ms, 9527ms total)
T05BC 730:796 JLINK_WriteU32(0xE000EDFC, 0x01000000) -- CPU_WriteMem(4 bytes @ 0xE000EDFC)  returns 0 (0001ms, 9528ms total)
T05BC 730:797 JLINK_GetHWStatus(...)  returns 0x00 (0000ms, 9528ms total)
T05BC 730:797 JLINK_GetNumBPUnits(Type = 0xFFFFFF00)  returns 0x06 (0000ms, 9528ms total)
T05BC 730:797 JLINK_GetNumBPUnits(Type = 0xF0)  returns 0x2000 (0000ms, 9528ms total)
T05BC 730:797 JLINK_GetNumWPUnits()  returns 0x04 (0000ms, 9528ms total)
T05BC 730:797 JLINK_GetSpeed()  returns 0x2EE0 (0000ms, 9528ms total)
T05BC 730:797 JLINK_ReadMemU32(0xE000E004, 0x0001 Items, ...) -- CPU_ReadMem(4 bytes @ 0xE000E004) - Data: 01 00 00 00  returns 1 (0000ms, 9528ms total)
T05BC 730:797 JLINK_ReadMemU32(0xE000E004, 0x0001 Items, ...) -- CPU_ReadMem(4 bytes @ 0xE000E004) - Data: 01 00 00 00  returns 1 (0001ms, 9529ms total)
T05BC 730:798 JLINK_WriteMemEx(0xE0001000, 0x001C Bytes, ..., Flags = 0x02000004) - Data: 01 00 00 00 00 00 00 00 00 00 00 00 00 00 00 00 ... -- CPU_WriteMem(28 bytes @ 0xE0001000)  returns 0x1C (0001ms, 9530ms total)
T05BC 730:799 JLINK_ReadReg(R15 (PC))  returns 0x08000284 (0000ms, 9530ms total)
T05BC 730:799 JLINK_ReadReg(XPSR)  returns 0x01000000 (0000ms, 9530ms total)
T05BC 730:803 JLINK_ReadMemEx(0xE0001004, 0x0004 Bytes, ..., Flags = 0x02000000) - Data: 00 00 00 00  returns 0x04 (0000ms, 9530ms total)
T05BC 730:871 JLINK_SetResetType(JLINKARM_CM3_RESET_TYPE_NORMAL)  returns JLINKARM_CM3_RESET_TYPE_NORMAL (0000ms, 9530ms total)
T05BC 730:871 JLINK_Reset() -- CPU_WriteMem(4 bytes @ 0xE000EDF0) -- CPU_WriteMem(4 bytes @ 0xE000EDFC)Reset: Halt core after reset via DEMCR.VC_CORERESET. >0x35 TIF>Reset: Reset device via AIRCR.SYSRESETREQ. -- CPU_WriteMem(4 bytes @ 0xE000ED0C) >0x0D TIF> >0x28 TIF> -- CPU_ReadMem(4 bytes @ 0xE000EDF0) -- CPU_ReadMem(4 bytes @ 0xE000EDF0) -- CPU_WriteMem(4 bytes @ 0xE000EDF0) -- CPU_WriteMem(4 bytes @ 0xE000EDFC) -- CPU_ReadMem(4 bytes @ 0xE000EDF0) -- CPU_WriteMem(4 bytes @ 0xE0002000)
 -- CPU_ReadMem(4 bytes @ 0xE000EDFC) -- CPU_ReadMem(4 bytes @ 0xE0001000) (0064ms, 9594ms total)
T05BC 730:935 JLINK_ReadReg(R15 (PC))  returns 0x08000284 (0000ms, 9594ms total)
T05BC 730:935 JLINK_ReadReg(XPSR)  returns 0x01000000 (0000ms, 9594ms total)
T05BC 730:935 JLINK_ReadMemEx(0x08000284, 0x003C Bytes, ..., Flags = 0x02000000) -- CPU_ReadMem(64 bytes @ 0x08000280) -- Updating C cache (64 bytes @ 0x08000280) -- Read from C cache (60 bytes @ 0x08000284) - Data: 09 48 80 47 09 48 00 47 FE E7 FE E7 FE E7 FE E7 ...  returns 0x3C (0001ms, 9595ms total)
T05BC 730:936 JLINK_ReadMemEx(0x08000284, 0x0002 Bytes, ..., Flags = 0x02000000) -- Read from C cache (2 bytes @ 0x08000284) - Data: 09 48  returns 0x02 (0000ms, 9595ms total)
T05BC 730:936 JLINK_ReadMemEx(0x08000286, 0x0002 Bytes, ..., Flags = 0x02000000) -- Read from C cache (2 bytes @ 0x08000286) - Data: 80 47  returns 0x02 (0000ms, 9595ms total)
T05BC 730:936 JLINK_ReadMemEx(0x08000286, 0x0002 Bytes, ..., Flags = 0x02000000) -- Read from C cache (2 bytes @ 0x08000286) - Data: 80 47  returns 0x02 (0000ms, 9595ms total)
T05BC 730:936 JLINK_ReadMemEx(0x08000288, 0x003C Bytes, ..., Flags = 0x02000000) -- CPU_ReadMem(64 bytes @ 0x080002C0) -- Updating C cache (64 bytes @ 0x080002C0) -- Read from C cache (60 bytes @ 0x08000288) - Data: 09 48 00 47 FE E7 FE E7 FE E7 FE E7 FE E7 FE E7 ...  returns 0x3C (0001ms, 9596ms total)
T05BC 730:937 JLINK_ReadMemEx(0x08000288, 0x0002 Bytes, ..., Flags = 0x02000000) -- Read from C cache (2 bytes @ 0x08000288) - Data: 09 48  returns 0x02 (0000ms, 9596ms total)
T05BC 732:214 JLINK_ReadReg(R0)  returns 0x00000001 (0000ms, 9596ms total)
T05BC 732:214 JLINK_ReadReg(R1)  returns 0x20001768 (0000ms, 9596ms total)
T05BC 732:214 JLINK_ReadReg(R2)  returns 0x00000000 (0000ms, 9596ms total)
T05BC 732:214 JLINK_ReadReg(R3)  returns 0x08003AB1 (0000ms, 9596ms total)
T05BC 732:214 JLINK_ReadReg(R4)  returns 0x00000000 (0000ms, 9596ms total)
T05BC 732:214 JLINK_ReadReg(R5)  returns 0x00000001 (0000ms, 9596ms total)
T05BC 732:214 JLINK_ReadReg(R6)  returns 0x20001054 (0000ms, 9596ms total)
T05BC 732:214 JLINK_ReadReg(R7)  returns 0x08003AB0 (0000ms, 9596ms total)
T05BC 732:214 JLINK_ReadReg(R8)  returns 0x00000000 (0000ms, 9596ms total)
T05BC 732:214 JLINK_ReadReg(R9)  returns 0x20000160 (0000ms, 9596ms total)
T05BC 732:214 JLINK_ReadReg(R10)  returns 0x08003ADC (0001ms, 9597ms total)
T05BC 732:215 JLINK_ReadReg(R11)  returns 0x00000000 (0000ms, 9597ms total)
T05BC 732:215 JLINK_ReadReg(R12)  returns 0x00000000 (0000ms, 9597ms total)
T05BC 732:215 JLINK_ReadReg(R13 (SP))  returns 0x200017B0 (0000ms, 9597ms total)
T05BC 732:215 JLINK_ReadReg(R14)  returns 0xFFFFFFFF (0000ms, 9597ms total)
T05BC 732:215 JLINK_ReadReg(R15 (PC))  returns 0x08000284 (0000ms, 9597ms total)
T05BC 732:215 JLINK_ReadReg(XPSR)  returns 0x01000000 (0000ms, 9597ms total)
T05BC 732:215 JLINK_ReadReg(MSP)  returns 0x200017B0 (0000ms, 9597ms total)
T05BC 732:215 JLINK_ReadReg(PSP)  returns 0x20001000 (0000ms, 9597ms total)
T05BC 732:215 JLINK_ReadReg(CFBP)  returns 0x00000000 (0000ms, 9597ms total)
T0BD8 732:240 JLINK_ReadMemEx(0x08000284, 0x0002 Bytes, ..., Flags = 0x02000000) -- Read from C cache (2 bytes @ 0x08000284) - Data: 09 48  returns 0x02 (0000ms, 9597ms total)
T0BD8 732:240 JLINK_SetBPEx(Addr = 0x08001608, Type = 0xFFFFFFF2)  returns 0x00000001 (0000ms, 9597ms total)
T0BD8 732:240 JLINK_Go() -- CPU_WriteMem(4 bytes @ 0xE0002000) -- CPU_ReadMem(4 bytes @ 0xE0001000) -- CPU_WriteMem(4 bytes @ 0xE0002008) -- CPU_WriteMem(4 bytes @ 0xE000200C) -- CPU_WriteMem(4 bytes @ 0xE0002010) -- CPU_WriteMem(4 bytes @ 0xE0002014) -- CPU_WriteMem(4 bytes @ 0xE0002018) -- CPU_WriteMem(4 bytes @ 0xE000201C) -- CPU_WriteMem(4 bytes @ 0xE0001004) (0002ms, 9599ms total)
T0BD8 732:343 JLINK_IsHalted()  returns TRUE (0001ms, 9600ms total)
T0BD8 732:344 JLINK_Halt()  returns 0x00 (0000ms, 9599ms total)
T0BD8 732:344 JLINK_IsHalted()  returns TRUE (0000ms, 9599ms total)
T0BD8 732:344 JLINK_IsHalted()  returns TRUE (0000ms, 9599ms total)
T0BD8 732:344 JLINK_IsHalted()  returns TRUE (0000ms, 9599ms total)
T0BD8 732:344 JLINK_ReadReg(R15 (PC))  returns 0x08000788 (0000ms, 9599ms total)
T0BD8 732:344 JLINK_ReadReg(XPSR)  returns 0x01000000 (0000ms, 9599ms total)
T0BD8 732:344 JLINK_ClrBPEx(BPHandle = 0x00000001)  returns 0x00 (0000ms, 9599ms total)
T0BD8 732:344 JLINK_ReadMemU32(0xE000ED30, 0x0001 Items, ...) -- CPU_ReadMem(4 bytes @ 0xE000ED30) - Data: 02 00 00 00  returns 1 (0001ms, 9600ms total)
T0BD8 732:345 JLINK_ReadMemU32(0xE0001028, 0x0001 Items, ...) -- CPU_ReadMem(4 bytes @ 0xE0001028) - Data: 00 00 00 00  returns 1 (0000ms, 9600ms total)
T0BD8 732:345 JLINK_ReadMemU32(0xE0001038, 0x0001 Items, ...) -- CPU_ReadMem(4 bytes @ 0xE0001038) - Data: 00 02 00 00  returns 1 (0000ms, 9600ms total)
T0BD8 732:345 JLINK_ReadMemU32(0xE0001048, 0x0001 Items, ...) -- CPU_ReadMem(4 bytes @ 0xE0001048) - Data: 00 00 00 00  returns 1 (0001ms, 9601ms total)
T0BD8 732:346 JLINK_ReadMemU32(0xE0001058, 0x0001 Items, ...) -- CPU_ReadMem(4 bytes @ 0xE0001058) - Data: 00 00 00 00  returns 1 (0000ms, 9601ms total)
T0BD8 732:346 JLINK_ReadReg(R0)  returns 0x00000001 (0000ms, 9601ms total)
T0BD8 732:346 JLINK_ReadReg(R1)  returns 0x20001768 (0000ms, 9601ms total)
T0BD8 732:346 JLINK_ReadReg(R2)  returns 0x00000000 (0000ms, 9601ms total)
T0BD8 732:346 JLINK_ReadReg(R3)  returns 0x08003AB1 (0000ms, 9601ms total)
T0BD8 732:346 JLINK_ReadReg(R4)  returns 0x00000000 (0000ms, 9601ms total)
T0BD8 732:346 JLINK_ReadReg(R5)  returns 0x00000001 (0000ms, 9601ms total)
T0BD8 732:346 JLINK_ReadReg(R6)  returns 0x20001054 (0000ms, 9601ms total)
T0BD8 732:346 JLINK_ReadReg(R7)  returns 0x08003AB0 (0001ms, 9602ms total)
T0BD8 732:347 JLINK_ReadReg(R8)  returns 0x00000000 (0000ms, 9602ms total)
T0BD8 732:347 JLINK_ReadReg(R9)  returns 0x20000160 (0000ms, 9602ms total)
T0BD8 732:347 JLINK_ReadReg(R10)  returns 0x08003ADC (0000ms, 9602ms total)
T0BD8 732:347 JLINK_ReadReg(R11)  returns 0x00000000 (0000ms, 9602ms total)
T0BD8 732:347 JLINK_ReadReg(R12)  returns 0x00000000 (0000ms, 9602ms total)
T0BD8 732:347 JLINK_ReadReg(R13 (SP))  returns 0x20001768 (0000ms, 9602ms total)
T0BD8 732:347 JLINK_ReadReg(R14)  returns 0x08000783 (0000ms, 9602ms total)
T0BD8 732:347 JLINK_ReadReg(R15 (PC))  returns 0x08000788 (0000ms, 9602ms total)
T0BD8 732:347 JLINK_ReadReg(XPSR)  returns 0x01000000 (0000ms, 9602ms total)
T0BD8 732:347 JLINK_ReadReg(MSP)  returns 0x20001768 (0000ms, 9602ms total)
T0BD8 732:347 JLINK_ReadReg(PSP)  returns 0x20001000 (0000ms, 9602ms total)
T0BD8 732:347 JLINK_ReadReg(CFBP)  returns 0x00000000 (0000ms, 9602ms total)
T05BC 732:348 JLINK_ReadMemEx(0x20001774, 0x0004 Bytes, ..., Flags = 0x02000000) -- CPU_ReadMem(64 bytes @ 0x20001740) -- Updating C cache (64 bytes @ 0x20001740) -- Read from C cache (4 bytes @ 0x20001774) - Data: 27 09 00 08  returns 0x04 (0000ms, 9602ms total)
T05BC 732:348 JLINK_ReadMemEx(0x20001774, 0x0004 Bytes, ..., Flags = 0x02000000) -- Read from C cache (4 bytes @ 0x20001774) - Data: 27 09 00 08  returns 0x04 (0000ms, 9602ms total)
T05BC 732:348 JLINK_ReadMemEx(0x2000178C, 0x0004 Bytes, ..., Flags = 0x02000000) -- CPU_ReadMem(64 bytes @ 0x20001780) -- Updating C cache (64 bytes @ 0x20001780) -- Read from C cache (4 bytes @ 0x2000178C) - Data: 85 06 00 08  returns 0x04 (0001ms, 9603ms total)
T05BC 732:349 JLINK_ReadMemEx(0x20001778, 0x0004 Bytes, ..., Flags = 0x02000000) -- Read from C cache (4 bytes @ 0x20001778) - Data: 00 00 00 00  returns 0x04 (0000ms, 9603ms total)
T05BC 732:349 JLINK_ReadMemEx(0x2000177C, 0x0004 Bytes, ..., Flags = 0x02000000) -- Read from C cache (4 bytes @ 0x2000177C) - Data: 50 11 00 20  returns 0x04 (0000ms, 9603ms total)
T05BC 732:349 JLINK_ReadMemEx(0x20001780, 0x0004 Bytes, ..., Flags = 0x02000000) -- Read from C cache (4 bytes @ 0x20001780) - Data: 00 00 00 00  returns 0x04 (0000ms, 9603ms total)
T05BC 732:349 JLINK_ReadMemEx(0x20001784, 0x0004 Bytes, ..., Flags = 0x02000000) -- Read from C cache (4 bytes @ 0x20001784) - Data: 00 00 00 00  returns 0x04 (0000ms, 9603ms total)
T05BC 732:349 JLINK_ReadMemEx(0x20001788, 0x0004 Bytes, ..., Flags = 0x02000000) -- Read from C cache (4 bytes @ 0x20001788) - Data: 00 00 00 00  returns 0x04 (0000ms, 9603ms total)
T05BC 732:349 JLINK_ReadMemEx(0x2000178C, 0x0004 Bytes, ..., Flags = 0x02000000) -- Read from C cache (4 bytes @ 0x2000178C) - Data: 85 06 00 08  returns 0x04 (0000ms, 9603ms total)
T05BC 732:349 JLINK_ReadMemEx(0x20001794, 0x0004 Bytes, ..., Flags = 0x02000000) -- Read from C cache (4 bytes @ 0x20001794) - Data: C3 01 00 08  returns 0x04 (0000ms, 9603ms total)
T05BC 732:349 JLINK_ReadMemEx(0x20001790, 0x0004 Bytes, ..., Flags = 0x02000000) -- Read from C cache (4 bytes @ 0x20001790) - Data: 00 00 00 00  returns 0x04 (0000ms, 9603ms total)
T05BC 732:349 JLINK_ReadMemEx(0x20001794, 0x0004 Bytes, ..., Flags = 0x02000000) -- Read from C cache (4 bytes @ 0x20001794) - Data: C3 01 00 08  returns 0x04 (0000ms, 9603ms total)
T05BC 732:354 JLINK_ReadMemU32(0xE0001004, 0x0001 Items, ...) -- CPU_ReadMem(4 bytes @ 0xE0001004) - Data: 15 20 00 00  returns 1 (0000ms, 9603ms total)
T05BC 732:357 JLINK_ReadMemEx(0x08000788, 0x003C Bytes, ..., Flags = 0x02000000) -- CPU_ReadMem(128 bytes @ 0x08000780) -- Updating C cache (128 bytes @ 0x08000780) -- Read from C cache (60 bytes @ 0x08000788) - Data: AB BE 0E BD 08 B5 69 46 00 90 02 20 AB BE 08 BD ...  returns 0x3C (0001ms, 9604ms total)
T05BC 732:358 JLINK_ReadMemEx(0x08000788, 0x0002 Bytes, ..., Flags = 0x02000000) -- Read from C cache (2 bytes @ 0x08000788) - Data: AB BE  returns 0x02 (0000ms, 9604ms total)
T05BC 732:358 JLINK_ReadMemEx(0x0800078A, 0x0002 Bytes, ..., Flags = 0x02000000) -- Read from C cache (2 bytes @ 0x0800078A) - Data: 0E BD  returns 0x02 (0000ms, 9604ms total)
T05BC 732:358 JLINK_ReadMemEx(0x0800078A, 0x0002 Bytes, ..., Flags = 0x02000000) -- Read from C cache (2 bytes @ 0x0800078A) - Data: 0E BD  returns 0x02 (0000ms, 9604ms total)
T05BC 732:358 JLINK_ReadMemEx(0x0800078C, 0x003C Bytes, ..., Flags = 0x02000000) -- Read from C cache (60 bytes @ 0x0800078C) - Data: 08 B5 69 46 00 90 02 20 AB BE 08 BD 1F B5 8D E8 ...  returns 0x3C (0000ms, 9604ms total)
T05BC 732:358 JLINK_ReadMemEx(0x0800078C, 0x0002 Bytes, ..., Flags = 0x02000000) -- Read from C cache (2 bytes @ 0x0800078C) - Data: 08 B5  returns 0x02 (0000ms, 9604ms total)
T05BC 732:358 JLINK_ReadMemEx(0x0800078C, 0x003C Bytes, ..., Flags = 0x02000000) -- Read from C cache (60 bytes @ 0x0800078C) - Data: 08 B5 69 46 00 90 02 20 AB BE 08 BD 1F B5 8D E8 ...  returns 0x3C (0000ms, 9604ms total)
T05BC 732:358 JLINK_ReadMemEx(0x0800078C, 0x0002 Bytes, ..., Flags = 0x02000000) -- Read from C cache (2 bytes @ 0x0800078C) - Data: 08 B5  returns 0x02 (0000ms, 9604ms total)
T05BC 732:358 JLINK_ReadMemEx(0x0800078E, 0x0002 Bytes, ..., Flags = 0x02000000) -- Read from C cache (2 bytes @ 0x0800078E) - Data: 69 46  returns 0x02 (0000ms, 9604ms total)
T05BC 732:358 JLINK_ReadMemEx(0x0800078E, 0x0002 Bytes, ..., Flags = 0x02000000) -- Read from C cache (2 bytes @ 0x0800078E) - Data: 69 46  returns 0x02 (0000ms, 9604ms total)
T05BC 732:358 JLINK_ReadMemEx(0x08000790, 0x003C Bytes, ..., Flags = 0x02000000) -- Read from C cache (60 bytes @ 0x08000790) - Data: 00 90 02 20 AB BE 08 BD 1F B5 8D E8 07 00 69 46 ...  returns 0x3C (0000ms, 9604ms total)
T05BC 732:358 JLINK_ReadMemEx(0x08000790, 0x0002 Bytes, ..., Flags = 0x02000000) -- Read from C cache (2 bytes @ 0x08000790) - Data: 00 90  returns 0x02 (0000ms, 9604ms total)
T0BD8 733:412 JLINK_ReadMemEx(0x08000788, 0x0002 Bytes, ..., Flags = 0x02000000) -- Read from C cache (2 bytes @ 0x08000788) - Data: AB BE  returns 0x02 (0000ms, 9604ms total)
T0BD8 733:412 JLINK_WriteReg(R15 (PC), 0x0800078A)  returns 0x00 (0000ms, 9604ms total)
T0BD8 733:413 JLINK_ReadReg(R0)  returns 0x00000001 (0000ms, 9604ms total)
T0BD8 733:413 JLINK_ReadReg(R1)  returns 0x20001768 (0000ms, 9604ms total)
T0BD8 733:413 JLINK_ReadReg(R2)  returns 0x00000000 (0000ms, 9604ms total)
T0BD8 733:413 JLINK_ReadReg(R3)  returns 0x08003AB1 (0000ms, 9604ms total)
T0BD8 733:413 JLINK_ReadReg(R4)  returns 0x00000000 (0000ms, 9604ms total)
T0BD8 733:413 JLINK_ReadReg(R5)  returns 0x00000001 (0000ms, 9604ms total)
T0BD8 733:413 JLINK_ReadReg(R6)  returns 0x20001054 (0000ms, 9604ms total)
T0BD8 733:413 JLINK_ReadReg(R7)  returns 0x08003AB0 (0000ms, 9604ms total)
T0BD8 733:413 JLINK_ReadReg(R8)  returns 0x00000000 (0000ms, 9604ms total)
T0BD8 733:413 JLINK_ReadReg(R9)  returns 0x20000160 (0000ms, 9604ms total)
T0BD8 733:413 JLINK_ReadReg(R10)  returns 0x08003ADC (0000ms, 9604ms total)
T0BD8 733:413 JLINK_ReadReg(R11)  returns 0x00000000 (0000ms, 9604ms total)
T0BD8 733:413 JLINK_ReadReg(R12)  returns 0x00000000 (0000ms, 9604ms total)
T0BD8 733:413 JLINK_ReadReg(R13 (SP))  returns 0x20001768 (0000ms, 9604ms total)
T0BD8 733:413 JLINK_ReadReg(R14)  returns 0x08000783 (0000ms, 9604ms total)
T0BD8 733:413 JLINK_ReadReg(R15 (PC))  returns 0x0800078A (0000ms, 9604ms total)
T0BD8 733:413 JLINK_ReadReg(XPSR)  returns 0x01000000 (0000ms, 9604ms total)
T0BD8 733:413 JLINK_ReadReg(MSP)  returns 0x20001768 (0000ms, 9604ms total)
T0BD8 733:413 JLINK_ReadReg(PSP)  returns 0x20001000 (0000ms, 9604ms total)
T0BD8 733:413 JLINK_ReadReg(CFBP)  returns 0x00000000 (0000ms, 9604ms total)
T05BC 733:415 JLINK_ReadMemEx(0x20001774, 0x0004 Bytes, ..., Flags = 0x02000000) -- Read from C cache (4 bytes @ 0x20001774) - Data: 27 09 00 08  returns 0x04 (0000ms, 9604ms total)
T05BC 733:415 JLINK_ReadMemEx(0x20001774, 0x0004 Bytes, ..., Flags = 0x02000000) -- Read from C cache (4 bytes @ 0x20001774) - Data: 27 09 00 08  returns 0x04 (0000ms, 9604ms total)
T05BC 733:415 JLINK_ReadMemEx(0x2000178C, 0x0004 Bytes, ..., Flags = 0x02000000) -- Read from C cache (4 bytes @ 0x2000178C) - Data: 85 06 00 08  returns 0x04 (0000ms, 9604ms total)
T05BC 733:415 JLINK_ReadMemEx(0x20001778, 0x0004 Bytes, ..., Flags = 0x02000000) -- Read from C cache (4 bytes @ 0x20001778) - Data: 00 00 00 00  returns 0x04 (0000ms, 9604ms total)
T05BC 733:415 JLINK_ReadMemEx(0x2000177C, 0x0004 Bytes, ..., Flags = 0x02000000) -- Read from C cache (4 bytes @ 0x2000177C) - Data: 50 11 00 20  returns 0x04 (0000ms, 9604ms total)
T05BC 733:415 JLINK_ReadMemEx(0x20001780, 0x0004 Bytes, ..., Flags = 0x02000000) -- Read from C cache (4 bytes @ 0x20001780) - Data: 00 00 00 00  returns 0x04 (0000ms, 9604ms total)
T05BC 733:415 JLINK_ReadMemEx(0x20001784, 0x0004 Bytes, ..., Flags = 0x02000000) -- Read from C cache (4 bytes @ 0x20001784) - Data: 00 00 00 00  returns 0x04 (0000ms, 9604ms total)
T05BC 733:415 JLINK_ReadMemEx(0x20001788, 0x0004 Bytes, ..., Flags = 0x02000000) -- Read from C cache (4 bytes @ 0x20001788) - Data: 00 00 00 00  returns 0x04 (0000ms, 9604ms total)
T05BC 733:415 JLINK_ReadMemEx(0x2000178C, 0x0004 Bytes, ..., Flags = 0x02000000) -- Read from C cache (4 bytes @ 0x2000178C) - Data: 85 06 00 08  returns 0x04 (0000ms, 9604ms total)
T05BC 733:415 JLINK_ReadMemEx(0x20001794, 0x0004 Bytes, ..., Flags = 0x02000000) -- Read from C cache (4 bytes @ 0x20001794) - Data: C3 01 00 08  returns 0x04 (0000ms, 9604ms total)
T05BC 733:415 JLINK_ReadMemEx(0x20001790, 0x0004 Bytes, ..., Flags = 0x02000000) -- Read from C cache (4 bytes @ 0x20001790) - Data: 00 00 00 00  returns 0x04 (0000ms, 9604ms total)
T05BC 733:415 JLINK_ReadMemEx(0x20001794, 0x0004 Bytes, ..., Flags = 0x02000000) -- Read from C cache (4 bytes @ 0x20001794) - Data: C3 01 00 08  returns 0x04 (0000ms, 9604ms total)
T05BC 733:415 JLINK_ReadMemU32(0xE0001004, 0x0001 Items, ...) - Data: 15 20 00 00  returns 1 (0000ms, 9604ms total)
T0BD8 733:913 JLINK_ReadMemEx(0x0800078A, 0x0002 Bytes, ..., Flags = 0x02000000) -- Read from C cache (2 bytes @ 0x0800078A) - Data: 0E BD  returns 0x02 (0000ms, 9604ms total)
T0BD8 733:913 JLINK_Step() -- Read from C cache (2 bytes @ 0x0800078A) -- CPU_ReadMem(4 bytes @ 0xE000ED18) -- CPU_WriteMem(4 bytes @ 0xE000ED18) -- CPU_ReadMem(4 bytes @ 0xE000ED18) -- CPU_WriteMem(4 bytes @ 0xE000ED18) -- Read from C cache (16 bytes @ 0x20001768) -- Simulated  returns 0x00 (0001ms, 9605ms total)
T0BD8 733:914 JLINK_ReadReg(R15 (PC))  returns 0x08000926 (0000ms, 9605ms total)
T0BD8 733:914 JLINK_ReadReg(XPSR)  returns 0x01000000 (0000ms, 9605ms total)
T0BD8 733:914 JLINK_ReadReg(R0)  returns 0x00000001 (0000ms, 9605ms total)
T0BD8 733:914 JLINK_ReadReg(R1)  returns 0x08003AB0 (0000ms, 9605ms total)
T0BD8 733:914 JLINK_ReadReg(R2)  returns 0x00000000 (0000ms, 9605ms total)
T0BD8 733:914 JLINK_ReadReg(R3)  returns 0x00000003 (0000ms, 9605ms total)
T0BD8 733:915 JLINK_ReadReg(R4)  returns 0x00000000 (0000ms, 9606ms total)
T0BD8 733:915 JLINK_ReadReg(R5)  returns 0x00000001 (0000ms, 9606ms total)
T0BD8 733:915 JLINK_ReadReg(R6)  returns 0x20001054 (0000ms, 9606ms total)
T0BD8 733:915 JLINK_ReadReg(R7)  returns 0x08003AB0 (0000ms, 9606ms total)
T0BD8 733:915 JLINK_ReadReg(R8)  returns 0x00000000 (0000ms, 9606ms total)
T0BD8 733:915 JLINK_ReadReg(R9)  returns 0x20000160 (0000ms, 9606ms total)
T0BD8 733:915 JLINK_ReadReg(R10)  returns 0x08003ADC (0000ms, 9606ms total)
T0BD8 733:915 JLINK_ReadReg(R11)  returns 0x00000000 (0000ms, 9606ms total)
T0BD8 733:915 JLINK_ReadReg(R12)  returns 0x00000000 (0000ms, 9606ms total)
T0BD8 733:915 JLINK_ReadReg(R13 (SP))  returns 0x20001778 (0000ms, 9606ms total)
T0BD8 733:915 JLINK_ReadReg(R14)  returns 0x08000783 (0000ms, 9606ms total)
T0BD8 733:915 JLINK_ReadReg(R15 (PC))  returns 0x08000926 (0000ms, 9606ms total)
T0BD8 733:915 JLINK_ReadReg(XPSR)  returns 0x01000000 (0000ms, 9606ms total)
T0BD8 733:915 JLINK_ReadReg(MSP)  returns 0x20001778 (0000ms, 9606ms total)
T0BD8 733:915 JLINK_ReadReg(PSP)  returns 0x20001000 (0000ms, 9606ms total)
T0BD8 733:915 JLINK_ReadReg(CFBP)  returns 0x00000000 (0000ms, 9606ms total)
T05BC 733:915 JLINK_ReadMemEx(0x2000178C, 0x0004 Bytes, ..., Flags = 0x02000000) -- Read from C cache (4 bytes @ 0x2000178C) - Data: 85 06 00 08  returns 0x04 (0000ms, 9606ms total)
T05BC 733:915 JLINK_ReadMemEx(0x20001778, 0x0004 Bytes, ..., Flags = 0x02000000) -- Read from C cache (4 bytes @ 0x20001778) - Data: 00 00 00 00  returns 0x04 (0000ms, 9606ms total)
T05BC 733:915 JLINK_ReadMemEx(0x2000177C, 0x0004 Bytes, ..., Flags = 0x02000000) -- Read from C cache (4 bytes @ 0x2000177C) - Data: 50 11 00 20  returns 0x04 (0001ms, 9607ms total)
T05BC 733:916 JLINK_ReadMemEx(0x20001780, 0x0004 Bytes, ..., Flags = 0x02000000) -- Read from C cache (4 bytes @ 0x20001780) - Data: 00 00 00 00  returns 0x04 (0000ms, 9607ms total)
T05BC 733:916 JLINK_ReadMemEx(0x20001784, 0x0004 Bytes, ..., Flags = 0x02000000) -- Read from C cache (4 bytes @ 0x20001784) - Data: 00 00 00 00  returns 0x04 (0000ms, 9607ms total)
T05BC 733:916 JLINK_ReadMemEx(0x20001788, 0x0004 Bytes, ..., Flags = 0x02000000) -- Read from C cache (4 bytes @ 0x20001788) - Data: 00 00 00 00  returns 0x04 (0000ms, 9607ms total)
T05BC 733:916 JLINK_ReadMemEx(0x2000178C, 0x0004 Bytes, ..., Flags = 0x02000000) -- Read from C cache (4 bytes @ 0x2000178C) - Data: 85 06 00 08  returns 0x04 (0000ms, 9607ms total)
T05BC 733:916 JLINK_ReadMemEx(0x20001794, 0x0004 Bytes, ..., Flags = 0x02000000) -- Read from C cache (4 bytes @ 0x20001794) - Data: C3 01 00 08  returns 0x04 (0000ms, 9607ms total)
T05BC 733:916 JLINK_ReadMemEx(0x20001790, 0x0004 Bytes, ..., Flags = 0x02000000) -- Read from C cache (4 bytes @ 0x20001790) - Data: 00 00 00 00  returns 0x04 (0000ms, 9607ms total)
T05BC 733:916 JLINK_ReadMemEx(0x20001794, 0x0004 Bytes, ..., Flags = 0x02000000) -- Read from C cache (4 bytes @ 0x20001794) - Data: C3 01 00 08  returns 0x04 (0000ms, 9607ms total)
T05BC 733:922 JLINK_ReadMemU32(0xE0001004, 0x0001 Items, ...) - Data: 1A 20 00 00  returns 1 (0000ms, 9607ms total)
T05BC 733:925 JLINK_ReadMemEx(0x08000926, 0x0002 Bytes, ..., Flags = 0x02000000) -- CPU_ReadMem(64 bytes @ 0x08000900) -- Updating C cache (64 bytes @ 0x08000900) -- Read from C cache (2 bytes @ 0x08000926) - Data: 41 1C  returns 0x02 (0001ms, 9608ms total)
T05BC 733:926 JLINK_ReadMemEx(0x08000928, 0x003C Bytes, ..., Flags = 0x02000000) -- CPU_ReadMem(64 bytes @ 0x08000940) -- Updating C cache (64 bytes @ 0x08000940) -- Read from C cache (60 bytes @ 0x08000928) - Data: 15 D0 00 21 31 61 71 60 4F F4 00 71 F5 60 F1 61 ...  returns 0x3C (0001ms, 9609ms total)
T05BC 733:927 JLINK_ReadMemEx(0x08000928, 0x0002 Bytes, ..., Flags = 0x02000000) -- Read from C cache (2 bytes @ 0x08000928) - Data: 15 D0  returns 0x02 (0000ms, 9609ms total)
T05BC 733:927 JLINK_ReadMemEx(0x08000928, 0x003C Bytes, ..., Flags = 0x02000000) -- Read from C cache (60 bytes @ 0x08000928) - Data: 15 D0 00 21 31 61 71 60 4F F4 00 71 F5 60 F1 61 ...  returns 0x3C (0000ms, 9609ms total)
T05BC 733:927 JLINK_ReadMemEx(0x08000928, 0x0002 Bytes, ..., Flags = 0x02000000) -- Read from C cache (2 bytes @ 0x08000928) - Data: 15 D0  returns 0x02 (0000ms, 9609ms total)
T05BC 733:927 JLINK_ReadMemEx(0x0800092A, 0x0002 Bytes, ..., Flags = 0x02000000) -- Read from C cache (2 bytes @ 0x0800092A) - Data: 00 21  returns 0x02 (0000ms, 9609ms total)
T05BC 733:927 JLINK_ReadMemEx(0x0800092A, 0x0002 Bytes, ..., Flags = 0x02000000) -- Read from C cache (2 bytes @ 0x0800092A) - Data: 00 21  returns 0x02 (0000ms, 9609ms total)
T05BC 733:927 JLINK_ReadMemEx(0x0800092C, 0x003C Bytes, ..., Flags = 0x02000000) -- Read from C cache (60 bytes @ 0x0800092C) - Data: 31 61 71 60 4F F4 00 71 F5 60 F1 61 70 61 20 07 ...  returns 0x3C (0000ms, 9609ms total)
T05BC 733:927 JLINK_ReadMemEx(0x0800092C, 0x0002 Bytes, ..., Flags = 0x02000000) -- Read from C cache (2 bytes @ 0x0800092C) - Data: 31 61  returns 0x02 (0000ms, 9609ms total)
T05BC 733:927 JLINK_ReadMemEx(0x0800092C, 0x003C Bytes, ..., Flags = 0x02000000) -- Read from C cache (60 bytes @ 0x0800092C) - Data: 31 61 71 60 4F F4 00 71 F5 60 F1 61 70 61 20 07 ...  returns 0x3C (0000ms, 9609ms total)
T05BC 733:927 JLINK_ReadMemEx(0x0800092C, 0x0002 Bytes, ..., Flags = 0x02000000) -- Read from C cache (2 bytes @ 0x0800092C) - Data: 31 61  returns 0x02 (0000ms, 9609ms total)
T05BC 733:927 JLINK_ReadMemEx(0x0800092E, 0x0002 Bytes, ..., Flags = 0x02000000) -- Read from C cache (2 bytes @ 0x0800092E) - Data: 71 60  returns 0x02 (0000ms, 9609ms total)
T0BD8 733:947 JLINK_ReadMemEx(0x08000926, 0x0002 Bytes, ..., Flags = 0x02000000) -- Read from C cache (2 bytes @ 0x08000926) - Data: 41 1C  returns 0x02 (0000ms, 9609ms total)
T0BD8 733:947 JLINK_Step() -- Read from C cache (2 bytes @ 0x08000926) -- Simulated  returns 0x00 (0000ms, 9609ms total)
T0BD8 733:947 JLINK_ReadReg(R15 (PC))  returns 0x08000928 (0000ms, 9609ms total)
T0BD8 733:947 JLINK_ReadReg(XPSR)  returns 0x01000000 (0000ms, 9609ms total)
T0BD8 733:947 JLINK_ReadReg(R0)  returns 0x00000001 (0000ms, 9609ms total)
T0BD8 733:947 JLINK_ReadReg(R1)  returns 0x00000002 (0000ms, 9609ms total)
T0BD8 733:947 JLINK_ReadReg(R2)  returns 0x00000000 (0000ms, 9609ms total)
T0BD8 733:947 JLINK_ReadReg(R3)  returns 0x00000003 (0000ms, 9609ms total)
T0BD8 733:947 JLINK_ReadReg(R4)  returns 0x00000000 (0000ms, 9609ms total)
T0BD8 733:947 JLINK_ReadReg(R5)  returns 0x00000001 (0000ms, 9609ms total)
T0BD8 733:947 JLINK_ReadReg(R6)  returns 0x20001054 (0000ms, 9609ms total)
T0BD8 733:947 JLINK_ReadReg(R7)  returns 0x08003AB0 (0000ms, 9609ms total)
T0BD8 733:947 JLINK_ReadReg(R8)  returns 0x00000000 (0000ms, 9609ms total)
T0BD8 733:947 JLINK_ReadReg(R9)  returns 0x20000160 (0000ms, 9609ms total)
T0BD8 733:947 JLINK_ReadReg(R10)  returns 0x08003ADC (0000ms, 9609ms total)
T0BD8 733:947 JLINK_ReadReg(R11)  returns 0x00000000 (0000ms, 9609ms total)
T0BD8 733:947 JLINK_ReadReg(R12)  returns 0x00000000 (0000ms, 9609ms total)
T0BD8 733:947 JLINK_ReadReg(R13 (SP))  returns 0x20001778 (0000ms, 9609ms total)
T0BD8 733:947 JLINK_ReadReg(R14)  returns 0x08000783 (0000ms, 9609ms total)
T0BD8 733:947 JLINK_ReadReg(R15 (PC))  returns 0x08000928 (0000ms, 9609ms total)
T0BD8 733:947 JLINK_ReadReg(XPSR)  returns 0x01000000 (0000ms, 9609ms total)
T0BD8 733:947 JLINK_ReadReg(MSP)  returns 0x20001778 (0000ms, 9609ms total)
T0BD8 733:947 JLINK_ReadReg(PSP)  returns 0x20001000 (0000ms, 9609ms total)
T0BD8 733:947 JLINK_ReadReg(CFBP)  returns 0x00000000 (0000ms, 9609ms total)
T05BC 733:948 JLINK_ReadMemEx(0x2000178C, 0x0004 Bytes, ..., Flags = 0x02000000) -- Read from C cache (4 bytes @ 0x2000178C) - Data: 85 06 00 08  returns 0x04 (0000ms, 9609ms total)
T05BC 733:948 JLINK_ReadMemEx(0x20001778, 0x0004 Bytes, ..., Flags = 0x02000000) -- Read from C cache (4 bytes @ 0x20001778) - Data: 00 00 00 00  returns 0x04 (0000ms, 9609ms total)
T05BC 733:948 JLINK_ReadMemEx(0x2000177C, 0x0004 Bytes, ..., Flags = 0x02000000) -- Read from C cache (4 bytes @ 0x2000177C) - Data: 50 11 00 20  returns 0x04 (0000ms, 9609ms total)
T05BC 733:948 JLINK_ReadMemEx(0x20001780, 0x0004 Bytes, ..., Flags = 0x02000000) -- Read from C cache (4 bytes @ 0x20001780) - Data: 00 00 00 00  returns 0x04 (0000ms, 9609ms total)
T05BC 733:948 JLINK_ReadMemEx(0x20001784, 0x0004 Bytes, ..., Flags = 0x02000000) -- Read from C cache (4 bytes @ 0x20001784) - Data: 00 00 00 00  returns 0x04 (0000ms, 9609ms total)
T05BC 733:948 JLINK_ReadMemEx(0x20001788, 0x0004 Bytes, ..., Flags = 0x02000000) -- Read from C cache (4 bytes @ 0x20001788) - Data: 00 00 00 00  returns 0x04 (0000ms, 9609ms total)
T05BC 733:948 JLINK_ReadMemEx(0x2000178C, 0x0004 Bytes, ..., Flags = 0x02000000) -- Read from C cache (4 bytes @ 0x2000178C) - Data: 85 06 00 08  returns 0x04 (0000ms, 9609ms total)
T05BC 733:948 JLINK_ReadMemEx(0x20001794, 0x0004 Bytes, ..., Flags = 0x02000000) -- Read from C cache (4 bytes @ 0x20001794) - Data: C3 01 00 08  returns 0x04 (0000ms, 9609ms total)
T05BC 733:948 JLINK_ReadMemEx(0x20001790, 0x0004 Bytes, ..., Flags = 0x02000000) -- Read from C cache (4 bytes @ 0x20001790) - Data: 00 00 00 00  returns 0x04 (0000ms, 9609ms total)
T05BC 733:948 JLINK_ReadMemEx(0x20001794, 0x0004 Bytes, ..., Flags = 0x02000000) -- Read from C cache (4 bytes @ 0x20001794) - Data: C3 01 00 08  returns 0x04 (0000ms, 9609ms total)
T05BC 733:948 JLINK_ReadMemU32(0xE0001004, 0x0001 Items, ...) - Data: 1B 20 00 00  returns 1 (0000ms, 9609ms total)
T0BD8 733:978 JLINK_ReadMemEx(0x08000928, 0x0002 Bytes, ..., Flags = 0x02000000) -- Read from C cache (2 bytes @ 0x08000928) - Data: 15 D0  returns 0x02 (0000ms, 9609ms total)
T0BD8 733:978 JLINK_Step() -- Read from C cache (2 bytes @ 0x08000928) -- Simulated  returns 0x00 (0001ms, 9610ms total)
T0BD8 733:979 JLINK_ReadReg(R15 (PC))  returns 0x0800092A (0000ms, 9610ms total)
T0BD8 733:979 JLINK_ReadReg(XPSR)  returns 0x01000000 (0000ms, 9610ms total)
T0BD8 733:979 JLINK_ReadReg(R0)  returns 0x00000001 (0000ms, 9610ms total)
T0BD8 733:979 JLINK_ReadReg(R1)  returns 0x00000002 (0000ms, 9610ms total)
T0BD8 733:979 JLINK_ReadReg(R2)  returns 0x00000000 (0000ms, 9610ms total)
T0BD8 733:979 JLINK_ReadReg(R3)  returns 0x00000003 (0000ms, 9610ms total)
T0BD8 733:979 JLINK_ReadReg(R4)  returns 0x00000000 (0000ms, 9610ms total)
T0BD8 733:979 JLINK_ReadReg(R5)  returns 0x00000001 (0000ms, 9610ms total)
T0BD8 733:979 JLINK_ReadReg(R6)  returns 0x20001054 (0000ms, 9610ms total)
T0BD8 733:979 JLINK_ReadReg(R7)  returns 0x08003AB0 (0000ms, 9610ms total)
T0BD8 733:979 JLINK_ReadReg(R8)  returns 0x00000000 (0000ms, 9610ms total)
T0BD8 733:979 JLINK_ReadReg(R9)  returns 0x20000160 (0000ms, 9610ms total)
T0BD8 733:979 JLINK_ReadReg(R10)  returns 0x08003ADC (0000ms, 9610ms total)
T0BD8 733:979 JLINK_ReadReg(R11)  returns 0x00000000 (0000ms, 9610ms total)
T0BD8 733:979 JLINK_ReadReg(R12)  returns 0x00000000 (0000ms, 9610ms total)
T0BD8 733:979 JLINK_ReadReg(R13 (SP))  returns 0x20001778 (0000ms, 9610ms total)
T0BD8 733:979 JLINK_ReadReg(R14)  returns 0x08000783 (0000ms, 9610ms total)
T0BD8 733:979 JLINK_ReadReg(R15 (PC))  returns 0x0800092A (0000ms, 9610ms total)
T0BD8 733:979 JLINK_ReadReg(XPSR)  returns 0x01000000 (0000ms, 9610ms total)
T0BD8 733:979 JLINK_ReadReg(MSP)  returns 0x20001778 (0000ms, 9610ms total)
T0BD8 733:979 JLINK_ReadReg(PSP)  returns 0x20001000 (0000ms, 9610ms total)
T0BD8 733:979 JLINK_ReadReg(CFBP)  returns 0x00000000 (0000ms, 9610ms total)
T05BC 733:980 JLINK_ReadMemEx(0x2000178C, 0x0004 Bytes, ..., Flags = 0x02000000) -- Read from C cache (4 bytes @ 0x2000178C) - Data: 85 06 00 08  returns 0x04 (0000ms, 9610ms total)
T05BC 733:980 JLINK_ReadMemEx(0x20001778, 0x0004 Bytes, ..., Flags = 0x02000000) -- Read from C cache (4 bytes @ 0x20001778) - Data: 00 00 00 00  returns 0x04 (0000ms, 9610ms total)
T05BC 733:980 JLINK_ReadMemEx(0x2000177C, 0x0004 Bytes, ..., Flags = 0x02000000) -- Read from C cache (4 bytes @ 0x2000177C) - Data: 50 11 00 20  returns 0x04 (0000ms, 9610ms total)
T05BC 733:980 JLINK_ReadMemEx(0x20001780, 0x0004 Bytes, ..., Flags = 0x02000000) -- Read from C cache (4 bytes @ 0x20001780) - Data: 00 00 00 00  returns 0x04 (0000ms, 9610ms total)
T05BC 733:980 JLINK_ReadMemEx(0x20001784, 0x0004 Bytes, ..., Flags = 0x02000000) -- Read from C cache (4 bytes @ 0x20001784) - Data: 00 00 00 00  returns 0x04 (0000ms, 9610ms total)
T05BC 733:980 JLINK_ReadMemEx(0x20001788, 0x0004 Bytes, ..., Flags = 0x02000000) -- Read from C cache (4 bytes @ 0x20001788) - Data: 00 00 00 00  returns 0x04 (0000ms, 9610ms total)
T05BC 733:980 JLINK_ReadMemEx(0x2000178C, 0x0004 Bytes, ..., Flags = 0x02000000) -- Read from C cache (4 bytes @ 0x2000178C) - Data: 85 06 00 08  returns 0x04 (0000ms, 9610ms total)
T05BC 733:980 JLINK_ReadMemEx(0x20001794, 0x0004 Bytes, ..., Flags = 0x02000000) -- Read from C cache (4 bytes @ 0x20001794) - Data: C3 01 00 08  returns 0x04 (0000ms, 9610ms total)
T05BC 733:980 JLINK_ReadMemEx(0x20001790, 0x0004 Bytes, ..., Flags = 0x02000000) -- Read from C cache (4 bytes @ 0x20001790) - Data: 00 00 00 00  returns 0x04 (0000ms, 9610ms total)
T05BC 733:980 JLINK_ReadMemEx(0x20001794, 0x0004 Bytes, ..., Flags = 0x02000000) -- Read from C cache (4 bytes @ 0x20001794) - Data: C3 01 00 08  returns 0x04 (0000ms, 9610ms total)
T05BC 733:980 JLINK_ReadMemU32(0xE0001004, 0x0001 Items, ...) - Data: 1C 20 00 00  returns 1 (0000ms, 9610ms total)
T0BD8 734:011 JLINK_ReadMemEx(0x0800092A, 0x0002 Bytes, ..., Flags = 0x02000000) -- Read from C cache (2 bytes @ 0x0800092A) - Data: 00 21  returns 0x02 (0000ms, 9610ms total)
T0BD8 734:011 JLINK_Step() -- Read from C cache (2 bytes @ 0x0800092A) -- Simulated  returns 0x00 (0000ms, 9610ms total)
T0BD8 734:011 JLINK_ReadReg(R15 (PC))  returns 0x0800092C (0000ms, 9610ms total)
T0BD8 734:011 JLINK_ReadReg(XPSR)  returns 0x41000000 (0000ms, 9610ms total)
T0BD8 734:012 JLINK_ReadReg(R0)  returns 0x00000001 (0000ms, 9610ms total)
T0BD8 734:012 JLINK_ReadReg(R1)  returns 0x00000000 (0000ms, 9610ms total)
T0BD8 734:012 JLINK_ReadReg(R2)  returns 0x00000000 (0000ms, 9610ms total)
T0BD8 734:012 JLINK_ReadReg(R3)  returns 0x00000003 (0000ms, 9610ms total)
T0BD8 734:012 JLINK_ReadReg(R4)  returns 0x00000000 (0000ms, 9610ms total)
T0BD8 734:012 JLINK_ReadReg(R5)  returns 0x00000001 (0000ms, 9610ms total)
T0BD8 734:012 JLINK_ReadReg(R6)  returns 0x20001054 (0000ms, 9610ms total)
T0BD8 734:012 JLINK_ReadReg(R7)  returns 0x08003AB0 (0000ms, 9610ms total)
T0BD8 734:012 JLINK_ReadReg(R8)  returns 0x00000000 (0000ms, 9610ms total)
T0BD8 734:012 JLINK_ReadReg(R9)  returns 0x20000160 (0000ms, 9610ms total)
T0BD8 734:012 JLINK_ReadReg(R10)  returns 0x08003ADC (0000ms, 9610ms total)
T0BD8 734:012 JLINK_ReadReg(R11)  returns 0x00000000 (0000ms, 9610ms total)
T0BD8 734:012 JLINK_ReadReg(R12)  returns 0x00000000 (0000ms, 9610ms total)
T0BD8 734:012 JLINK_ReadReg(R13 (SP))  returns 0x20001778 (0000ms, 9610ms total)
T0BD8 734:012 JLINK_ReadReg(R14)  returns 0x08000783 (0000ms, 9610ms total)
T0BD8 734:012 JLINK_ReadReg(R15 (PC))  returns 0x0800092C (0000ms, 9610ms total)
T0BD8 734:012 JLINK_ReadReg(XPSR)  returns 0x41000000 (0000ms, 9610ms total)
T0BD8 734:012 JLINK_ReadReg(MSP)  returns 0x20001778 (0000ms, 9610ms total)
T0BD8 734:012 JLINK_ReadReg(PSP)  returns 0x20001000 (0000ms, 9610ms total)
T0BD8 734:012 JLINK_ReadReg(CFBP)  returns 0x00000000 (0000ms, 9610ms total)
T05BC 734:013 JLINK_ReadMemEx(0x2000178C, 0x0004 Bytes, ..., Flags = 0x02000000) -- Read from C cache (4 bytes @ 0x2000178C) - Data: 85 06 00 08  returns 0x04 (0000ms, 9610ms total)
T05BC 734:013 JLINK_ReadMemEx(0x20001778, 0x0004 Bytes, ..., Flags = 0x02000000) -- Read from C cache (4 bytes @ 0x20001778) - Data: 00 00 00 00  returns 0x04 (0000ms, 9610ms total)
T05BC 734:013 JLINK_ReadMemEx(0x2000177C, 0x0004 Bytes, ..., Flags = 0x02000000) -- Read from C cache (4 bytes @ 0x2000177C) - Data: 50 11 00 20  returns 0x04 (0000ms, 9610ms total)
T05BC 734:013 JLINK_ReadMemEx(0x20001780, 0x0004 Bytes, ..., Flags = 0x02000000) -- Read from C cache (4 bytes @ 0x20001780) - Data: 00 00 00 00  returns 0x04 (0000ms, 9610ms total)
T05BC 734:013 JLINK_ReadMemEx(0x20001784, 0x0004 Bytes, ..., Flags = 0x02000000) -- Read from C cache (4 bytes @ 0x20001784) - Data: 00 00 00 00  returns 0x04 (0000ms, 9610ms total)
T05BC 734:013 JLINK_ReadMemEx(0x20001788, 0x0004 Bytes, ..., Flags = 0x02000000) -- Read from C cache (4 bytes @ 0x20001788) - Data: 00 00 00 00  returns 0x04 (0000ms, 9610ms total)
T05BC 734:013 JLINK_ReadMemEx(0x2000178C, 0x0004 Bytes, ..., Flags = 0x02000000) -- Read from C cache (4 bytes @ 0x2000178C) - Data: 85 06 00 08  returns 0x04 (0000ms, 9610ms total)
T05BC 734:013 JLINK_ReadMemEx(0x20001794, 0x0004 Bytes, ..., Flags = 0x02000000) -- Read from C cache (4 bytes @ 0x20001794) - Data: C3 01 00 08  returns 0x04 (0000ms, 9610ms total)
T05BC 734:013 JLINK_ReadMemEx(0x20001790, 0x0004 Bytes, ..., Flags = 0x02000000) -- Read from C cache (4 bytes @ 0x20001790) - Data: 00 00 00 00  returns 0x04 (0000ms, 9610ms total)
T05BC 734:013 JLINK_ReadMemEx(0x20001794, 0x0004 Bytes, ..., Flags = 0x02000000) -- Read from C cache (4 bytes @ 0x20001794) - Data: C3 01 00 08  returns 0x04 (0000ms, 9610ms total)
T05BC 734:013 JLINK_ReadMemU32(0xE0001004, 0x0001 Items, ...) - Data: 1D 20 00 00  returns 1 (0000ms, 9610ms total)
T0BD8 734:046 JLINK_ReadMemEx(0x0800092C, 0x0002 Bytes, ..., Flags = 0x02000000) -- Read from C cache (2 bytes @ 0x0800092C) - Data: 31 61  returns 0x02 (0000ms, 9610ms total)
T0BD8 734:046 JLINK_Step() -- Read from C cache (2 bytes @ 0x0800092C) -- CPU_WriteMem(4 bytes @ 0x20001064) -- Simulated  returns 0x00 (0000ms, 9610ms total)
T0BD8 734:046 JLINK_ReadReg(R15 (PC))  returns 0x0800092E (0000ms, 9610ms total)
T0BD8 734:046 JLINK_ReadReg(XPSR)  returns 0x41000000 (0000ms, 9610ms total)
T0BD8 734:046 JLINK_ReadReg(R0)  returns 0x00000001 (0000ms, 9610ms total)
T0BD8 734:046 JLINK_ReadReg(R1)  returns 0x00000000 (0000ms, 9610ms total)
T0BD8 734:046 JLINK_ReadReg(R2)  returns 0x00000000 (0000ms, 9610ms total)
T0BD8 734:046 JLINK_ReadReg(R3)  returns 0x00000003 (0000ms, 9610ms total)
T0BD8 734:046 JLINK_ReadReg(R4)  returns 0x00000000 (0000ms, 9610ms total)
T0BD8 734:046 JLINK_ReadReg(R5)  returns 0x00000001 (0000ms, 9610ms total)
T0BD8 734:046 JLINK_ReadReg(R6)  returns 0x20001054 (0000ms, 9610ms total)
T0BD8 734:046 JLINK_ReadReg(R7)  returns 0x08003AB0 (0001ms, 9611ms total)
T0BD8 734:047 JLINK_ReadReg(R8)  returns 0x00000000 (0000ms, 9611ms total)
T0BD8 734:047 JLINK_ReadReg(R9)  returns 0x20000160 (0000ms, 9611ms total)
T0BD8 734:047 JLINK_ReadReg(R10)  returns 0x08003ADC (0000ms, 9611ms total)
T0BD8 734:047 JLINK_ReadReg(R11)  returns 0x00000000 (0000ms, 9611ms total)
T0BD8 734:047 JLINK_ReadReg(R12)  returns 0x00000000 (0000ms, 9611ms total)
T0BD8 734:047 JLINK_ReadReg(R13 (SP))  returns 0x20001778 (0000ms, 9611ms total)
T0BD8 734:047 JLINK_ReadReg(R14)  returns 0x08000783 (0000ms, 9611ms total)
T0BD8 734:047 JLINK_ReadReg(R15 (PC))  returns 0x0800092E (0000ms, 9611ms total)
T0BD8 734:047 JLINK_ReadReg(XPSR)  returns 0x41000000 (0000ms, 9611ms total)
T0BD8 734:047 JLINK_ReadReg(MSP)  returns 0x20001778 (0000ms, 9611ms total)
T0BD8 734:047 JLINK_ReadReg(PSP)  returns 0x20001000 (0000ms, 9611ms total)
T0BD8 734:047 JLINK_ReadReg(CFBP)  returns 0x00000000 (0000ms, 9611ms total)
T05BC 734:048 JLINK_ReadMemEx(0x2000178C, 0x0004 Bytes, ..., Flags = 0x02000000) -- Read from C cache (4 bytes @ 0x2000178C) - Data: 85 06 00 08  returns 0x04 (0000ms, 9611ms total)
T05BC 734:048 JLINK_ReadMemEx(0x20001778, 0x0004 Bytes, ..., Flags = 0x02000000) -- Read from C cache (4 bytes @ 0x20001778) - Data: 00 00 00 00  returns 0x04 (0000ms, 9611ms total)
T05BC 734:048 JLINK_ReadMemEx(0x2000177C, 0x0004 Bytes, ..., Flags = 0x02000000) -- Read from C cache (4 bytes @ 0x2000177C) - Data: 50 11 00 20  returns 0x04 (0000ms, 9611ms total)
T05BC 734:048 JLINK_ReadMemEx(0x20001780, 0x0004 Bytes, ..., Flags = 0x02000000) -- Read from C cache (4 bytes @ 0x20001780) - Data: 00 00 00 00  returns 0x04 (0000ms, 9611ms total)
T05BC 734:049 JLINK_ReadMemEx(0x20001784, 0x0004 Bytes, ..., Flags = 0x02000000) -- Read from C cache (4 bytes @ 0x20001784) - Data: 00 00 00 00  returns 0x04 (0000ms, 9612ms total)
T05BC 734:049 JLINK_ReadMemEx(0x20001788, 0x0004 Bytes, ..., Flags = 0x02000000) -- Read from C cache (4 bytes @ 0x20001788) - Data: 00 00 00 00  returns 0x04 (0000ms, 9612ms total)
T05BC 734:049 JLINK_ReadMemEx(0x2000178C, 0x0004 Bytes, ..., Flags = 0x02000000) -- Read from C cache (4 bytes @ 0x2000178C) - Data: 85 06 00 08  returns 0x04 (0000ms, 9612ms total)
T05BC 734:049 JLINK_ReadMemEx(0x20001794, 0x0004 Bytes, ..., Flags = 0x02000000) -- Read from C cache (4 bytes @ 0x20001794) - Data: C3 01 00 08  returns 0x04 (0000ms, 9612ms total)
T05BC 734:049 JLINK_ReadMemEx(0x20001790, 0x0004 Bytes, ..., Flags = 0x02000000) -- Read from C cache (4 bytes @ 0x20001790) - Data: 00 00 00 00  returns 0x04 (0000ms, 9612ms total)
T05BC 734:049 JLINK_ReadMemEx(0x20001794, 0x0004 Bytes, ..., Flags = 0x02000000) -- Read from C cache (4 bytes @ 0x20001794) - Data: C3 01 00 08  returns 0x04 (0000ms, 9612ms total)
T05BC 734:049 JLINK_ReadMemU32(0xE0001004, 0x0001 Items, ...) - Data: 1F 20 00 00  returns 1 (0000ms, 9612ms total)
T05BC 734:052 JLINK_ReadMemEx(0x0800092E, 0x0002 Bytes, ..., Flags = 0x02000000) -- Read from C cache (2 bytes @ 0x0800092E) - Data: 71 60  returns 0x02 (0000ms, 9612ms total)
T05BC 734:052 JLINK_ReadMemEx(0x08000930, 0x003C Bytes, ..., Flags = 0x02000000) -- Read from C cache (60 bytes @ 0x08000930) - Data: 4F F4 00 71 F5 60 F1 61 70 61 20 07 04 D5 30 46 ...  returns 0x3C (0000ms, 9612ms total)
T05BC 734:052 JLINK_ReadMemEx(0x08000930, 0x0002 Bytes, ..., Flags = 0x02000000) -- Read from C cache (2 bytes @ 0x08000930) - Data: 4F F4  returns 0x02 (0000ms, 9612ms total)
T05BC 734:052 JLINK_ReadMemEx(0x08000930, 0x003C Bytes, ..., Flags = 0x02000000) -- Read from C cache (60 bytes @ 0x08000930) - Data: 4F F4 00 71 F5 60 F1 61 70 61 20 07 04 D5 30 46 ...  returns 0x3C (0000ms, 9612ms total)
T05BC 734:052 JLINK_ReadMemEx(0x08000930, 0x0002 Bytes, ..., Flags = 0x02000000) -- Read from C cache (2 bytes @ 0x08000930) - Data: 4F F4  returns 0x02 (0000ms, 9612ms total)
T05BC 734:052 JLINK_ReadMemEx(0x08000932, 0x0002 Bytes, ..., Flags = 0x02000000) -- Read from C cache (2 bytes @ 0x08000932) - Data: 00 71  returns 0x02 (0000ms, 9612ms total)
T05BC 734:052 JLINK_ReadMemEx(0x08000934, 0x003C Bytes, ..., Flags = 0x02000000) -- Read from C cache (60 bytes @ 0x08000934) - Data: F5 60 F1 61 70 61 20 07 04 D5 30 46 02 22 00 21 ...  returns 0x3C (0000ms, 9612ms total)
T05BC 734:052 JLINK_ReadMemEx(0x08000934, 0x0002 Bytes, ..., Flags = 0x02000000) -- Read from C cache (2 bytes @ 0x08000934) - Data: F5 60  returns 0x02 (0000ms, 9612ms total)
T05BC 734:052 JLINK_ReadMemEx(0x08000936, 0x0002 Bytes, ..., Flags = 0x02000000) -- Read from C cache (2 bytes @ 0x08000936) - Data: F1 61  returns 0x02 (0000ms, 9612ms total)
